
T0FFC 001:665 SEGGER J-Link V4.35b (beta) Log File (0000ms, 1660ms total)
T0FFC 001:665 DLL Compiled: Sep  2 2011 18:34:46 (0000ms, 1660ms total)
T0FFC 001:665 Logging started @ 2013-09-21 18:21 (0000ms, 1660ms total)
T0FFC 001:665 JLINK_SetWarnOutHandler(...) (0000ms, 1660ms total)
T0FFC 001:665 JLINK_OpenEx(...)
Firmware: J-Link ARM V8 compiled Jan 29 2010 19:34:13
Hardware: V8.00
S/N: 20100416
Feature(s): RDI,FlashDL,FlashBP,JFlash,GDBFull  returns O.K. (0664ms, 1660ms total)
T0FFC 002:329 JLINK_SetErrorOutHandler(...) (0000ms, 2324ms total)
T0FFC 002:335 JLINK_ExecCommand("Device = STM32F407IG", ...)  returns 0x00 (0000ms, 2324ms total)
T0FFC 002:336 JLINK_ExecCommand("ProjectFile = "D:\work\Keil\STM32\F407ZG\RTOS\Project\FreeRTOS\httpserver_socket\MDK-ARM\JLinkSettings.ini"", ...)  returns 0x00 (0001ms, 2324ms total)
T0FFC 002:340 JLINK_ExecCommand("DisableConnectionTimeout", ...)  returns 0x00 (0000ms, 2325ms total)
T0FFC 002:340 JLINK_TIF_Select(JLINKARM_TIF_SWD)  returns 0x00 (0007ms, 2325ms total)
T0FFC 002:350 JLINK_SetSpeed(5000) (0001ms, 2332ms total)
T0FFC 002:351 JLINK_GetHardwareVersion()  returns 0x13880 (0000ms, 2333ms total)
T0FFC 002:351 JLINK_GetDLLVersion()  returns 43502 (0000ms, 2333ms total)
T0FFC 002:351 JLINK_GetFirmwareString(...) (0001ms, 2333ms total)
T0FFC 002:357 JLINK_GetDLLVersion()  returns 43502 (0000ms, 2334ms total)
T0FFC 002:357 JLINK_GetCompileDateTime() (0000ms, 2334ms total)
T0FFC 002:359 JLINK_GetFirmwareString(...) (0000ms, 2334ms total)
T0FFC 002:362 JLINK_GetHardwareVersion()  returns 0x13880 (0000ms, 2334ms total)
T0FFC 002:378 JLINK_GetId() >0x108 TIF>Found SWD-DP with ID 0x2BA01477 >0x33 TIF> >0x33 TIF> >0x35 TIF> >0x33 TIF> >0x35 TIF> >0x33 TIF> >0x33 TIF> >0x35 TIF> >0x33 TIF> >0x33 TIF> >0x35 TIF> >0x33 TIF> >0x33 TIF> >0x35 TIF> >0x33 TIF> >0x33 TIF> >0x35 TIF> >0x35 TIF> >0x35 TIF> >0x35 TIF> >0x35 TIF> >0x33 TIF> >0x33 TIF> >0x35 TIF> >0x33 TIF> >0x33 TIF> >0x33 TIF>TPIU fitted.ETM fitted. >0x35 TIF> >0x33 TIF> >0x33 TIF> >0x35 TIF> >0x33 TIF> >0x33 TIF>  FPUnit: 6 code (BP) slots and 2 literal slots
 >0x35 TIF> >0x33 TIF> >0x33 TIF> >0x35 TIF> >0x33 TIF> >0x33 TIF> >0x35 TIF> >0x33 TIF> >0x33 TIF>Found Cortex-M4 r0p1, Little endian. >0x33 TIF>  returns 0x2BA01477 (0112ms, 2334ms total)
T0FFC 002:490 JLINK_GetDebugInfo(0x100) -- Value=0xE00FF003  returns 0x00 (0001ms, 2446ms total)
T0FFC 002:495 JLINK_ReadMem (0xE00FFFF0, 0x0010 Bytes, ...) -- CPU is running >0x26E TIF> -- Data:  0D 00 00 00 10 00 00 00 05 00 00 00 B1 00 00 00  returns 0x00 (0002ms, 2447ms total)
T0FFC 002:497 JLINK_ReadMem (0xE00FFFD0, 0x0020 Bytes, ...) -- CPU is running >0x33A TIF> -- Data:  00 00 00 00 00 00 00 00 00 00 00 00 00 00 00 00 ...  returns 0x00 (0004ms, 2449ms total)
T0FFC 002:501 JLINK_ReadMem (0xE00FF000, 0x0018 Bytes, ...) -- CPU is running >0x2D4 TIF> -- Data:  03 F0 F0 FF 03 20 F0 FF 03 30 F0 FF 03 10 F0 FF ...  returns 0x00 (0002ms, 2453ms total)
T0FFC 002:503 JLINK_ReadMemU32(0xE000ED00, 0x0001 Items, ...) -- CPU is running >0x1D5 TIF> -- Data:  41 C2 0F 41  returns 0x01 (0002ms, 2455ms total)
T0FFC 002:505 JLINK_ReadMemU32(0xE000EF40, 0x0001 Items, ...) -- CPU is running >0x1D5 TIF> -- Data:  21 00 11 10  returns 0x01 (0002ms, 2457ms total)
T0FFC 002:507 JLINK_ReadMemU32(0xE000EF44, 0x0001 Items, ...) -- CPU is running >0x1D5 TIF> -- Data:  11 00 00 11  returns 0x01 (0002ms, 2459ms total)
T0FFC 002:509 JLINK_SetResetType(JLINKARM_RESET_TYPE_NORMAL)  returns JLINKARM_RESET_TYPE_NORMAL (0001ms, 2461ms total)
T0FFC 002:510 JLINK_Reset() >0x108 TIF>Found SWD-DP with ID 0x2BA01477 >0x33 TIF> >0x33 TIF> >0x35 TIF> >0x33 TIF> >0x35 TIF> >0x33 TIF> >0x33 TIF> >0x35 TIF> >0x33 TIF> >0x33 TIF> >0x35 TIF> >0x33 TIF> >0x33 TIF> >0x35 TIF> >0x33 TIF> >0x33 TIF> >0x35 TIF> >0x35 TIF> >0x35 TIF> >0x35 TIF> >0x35 TIF> >0x33 TIF> >0x33 TIF> >0x35 TIF> >0x33 TIF> >0x33 TIF> >0x33 TIF>TPIU fitted.ETM fitted. >0x35 TIF> >0x33 TIF> >0x33 TIF> >0x35 TIF> >0x33 TIF> >0x33 TIF>  FPUnit: 6 code (BP) slots and 2 literal slots
 >0x35 TIF> >0x33 TIF> >0x33 TIF> >0x35 TIF> >0x33 TIF> >0x33 TIF> >0x35 TIF> >0x33 TIF> >0x33 TIF>Found Cortex-M4 r0p1, Little endian. -- CPU is running >0x1D7 TIF> -- CPU is running >0x1D7 TIF> >0x35 TIF> -- CPU is running >0x1D7 TIF> -- CPU is running >0x1D5 TIF> -- CPU is running >0x1D5 TIF> -- CPU is running >0x1D7 TIF> -- CPU is running >0x1D7 TIF> -- CPU is running >0x1D5 TIF> >0x13A TIF> >0x11E4 TIF> (0142ms, 2462ms total)
T0FFC 002:653 JLINK_Halt()  returns 0x00 (0000ms, 2604ms total)
T0FFC 002:653 JLINK_IsHalted()  returns TRUE (0000ms, 2604ms total)
T0FFC 002:653 JLINK_ReadMemU32(0xE000EDF0, 0x0001 Items, ...) >0x1D5 TIF> -- Data:  03 00 03 00  returns 0x01 (0001ms, 2604ms total)
T0FFC 002:654 JLINK_WriteU32(0xE000EDF0, 0xA05F0003) >0x1D7 TIF>  returns 0x00 (0002ms, 2605ms total)
T0FFC 002:656 JLINK_WriteU32(0xE000EDFC, 0x01000000) >0x1D7 TIF>  returns 0x00 (0002ms, 2607ms total)
T0FFC 002:658 JLINK_ReadMemU32(0xE0002000, 0x0001 Items, ...) >0x1D5 TIF> -- Data:  60 02 00 00  returns 0x01 (0002ms, 2609ms total)
T0FFC 002:660 JLINK_ReadMemU32(0xE0001000, 0x0001 Items, ...) >0x1D5 TIF> -- Data:  01 00 00 40  returns 0x01 (0002ms, 2611ms total)
T0FFC 002:662 JLINK_WriteU32(0xE0001028, 0x00000000) >0x1D7 TIF>  returns 0x00 (0002ms, 2613ms total)
T0FFC 002:664 JLINK_WriteU32(0xE0001038, 0x00000000) >0x1D7 TIF>  returns 0x00 (0002ms, 2615ms total)
T0FFC 002:666 JLINK_WriteU32(0xE0001048, 0x00000000) >0x1D7 TIF>  returns 0x00 (0002ms, 2617ms total)
T0FFC 002:668 JLINK_WriteU32(0xE0001058, 0x00000000) >0x1D7 TIF>  returns 0x00 (0002ms, 2619ms total)
T0FFC 002:686 JLINK_GetHWStatus(...)  returns 0x00 (0003ms, 2621ms total)
T0FFC 002:701 JLINK_GetNumBPUnits(Type = 0xFFFFFF00)  returns 0x06 (0000ms, 2624ms total)
T0FFC 002:701 JLINK_GetNumBPUnits(Type = 0xF0)  returns 0x2000 (0000ms, 2624ms total)
T0FFC 002:701 JLINK_GetNumWPUnits()  returns 0x04 (0000ms, 2624ms total)
T0FFC 002:712 JLINK_GetSpeed()  returns 0x12C0 (0000ms, 2624ms total)
T0FFC 002:720 JLINK_ReadMemU32(0xE000E004, 0x0001 Items, ...) >0x1D5 TIF> -- Data:  02 00 00 00  returns 0x01 (0002ms, 2624ms total)
T0FFC 002:722 JLINK_ReadMemU32(0xE000E004, 0x0001 Items, ...) >0x1D5 TIF> -- Data:  02 00 00 00  returns 0x01 (0003ms, 2626ms total)
T0FFC 002:725 JLINK_WriteMem(0xE0001000, 0x001C Bytes, ...) -- Data:  01 00 00 00 00 00 00 00 00 00 00 00 00 00 00 00 ... >0x315 TIF>  returns 0x1C (0002ms, 2629ms total)
T0FFC 002:727 JLINK_ReadMem (0xE0001000, 0x001C Bytes, ...) >0x307 TIF> -- Data:  01 00 00 40 00 00 00 00 00 00 00 00 00 00 00 00 ...  returns 0x00 (0003ms, 2631ms total)
T0FFC 002:730 JLINK_Halt()  returns 0x00 (0001ms, 2634ms total)
T0FFC 002:731 JLINK_IsHalted()  returns TRUE (0000ms, 2635ms total)
T0FFC 002:734 JLINK_WriteMem(0x20000000, 0x0180 Bytes, ...) -- Data:  00 BE 0A E0 0D 78 2D 06 68 40 08 24 40 00 00 D3 ... >0x1582 TIF>  returns 0x180 (0006ms, 2635ms total)
T0FFC 002:741 JLINK_WriteReg(R0, 0x08000000)  returns 0x00 (0000ms, 2641ms total)
T0FFC 002:741 JLINK_WriteReg(R1, 0x017D7840)  returns 0x00 (0000ms, 2641ms total)
T0FFC 002:741 JLINK_WriteReg(R2, 0x00000001)  returns 0x00 (0000ms, 2641ms total)
T0FFC 002:741 JLINK_WriteReg(R3, 0x00000000)  returns 0x00 (0000ms, 2641ms total)
T0FFC 002:741 JLINK_WriteReg(R4, 0x00000000)  returns 0x00 (0000ms, 2641ms total)
T0FFC 002:741 JLINK_WriteReg(R5, 0x00000000)  returns 0x00 (0000ms, 2641ms total)
T0FFC 002:741 JLINK_WriteReg(R6, 0x00000000)  returns 0x00 (0000ms, 2641ms total)
T0FFC 002:741 JLINK_WriteReg(R7, 0x00000000)  returns 0x00 (0000ms, 2641ms total)
T0FFC 002:741 JLINK_WriteReg(R8, 0x00000000)  returns 0x00 (0000ms, 2641ms total)
T0FFC 002:741 JLINK_WriteReg(R9, 0x2000017C)  returns 0x00 (0000ms, 2641ms total)
T0FFC 002:741 JLINK_WriteReg(R10, 0x00000000)  returns 0x00 (0000ms, 2641ms total)
T0FFC 002:741 JLINK_WriteReg(R11, 0x00000000)  returns 0x00 (0000ms, 2641ms total)
T0FFC 002:741 JLINK_WriteReg(R12, 0x00000000)  returns 0x00 (0000ms, 2641ms total)
T0FFC 002:741 JLINK_WriteReg(R13, 0x20000800)  returns 0x00 (0000ms, 2641ms total)
T0FFC 002:741 JLINK_WriteReg(R14, 0x20000001)  returns 0x00 (0000ms, 2641ms total)
T0FFC 002:741 JLINK_WriteReg(R15, 0x20000054)  returns 0x00 (0000ms, 2641ms total)
T0FFC 002:741 JLINK_WriteReg(XPSR, 0x01000000)  returns 0x00 (0000ms, 2641ms total)
T0FFC 002:741 JLINK_WriteReg(MSP, 0x20000800)  returns 0x00 (0000ms, 2641ms total)
T0FFC 002:741 JLINK_WriteReg(PSP, 0x20000800)  returns 0x00 (0000ms, 2641ms total)
T0FFC 002:741 JLINK_WriteReg(BASEPRI, 0x00000000)  returns 0x00 (0000ms, 2641ms total)
T0FFC 002:741 JLINK_WriteReg(CONTROL, 0x00000000)  returns 0x00 (0001ms, 2641ms total)
T0FFC 002:742 JLINK_WriteReg(FAULTMASK, 0x00000000)  returns 0x00 (0000ms, 2642ms total)
T0FFC 002:742 JLINK_WriteReg(BASEPRI_MAX, 0x00000000)  returns 0x00 (0000ms, 2642ms total)
T0FFC 002:742 JLINK_SetBPEx(Addr = 0x20000000, Type = 0xFFFFFFF2) >0x1D5 TIF> >0x1D7 TIF> >0x1D5 TIF> >0x1D7 TIF> >0x1D5 TIF>  returns 0x00000001 (0009ms, 2642ms total)
T0FFC 002:751 JLINK_Go() >0x1D7 TIF> >0x1D7 TIF> >0x1D7 TIF> >0x1D7 TIF> >0x1D7 TIF> >0x1D7 TIF> >0x1D7 TIF> >0x278 TIF> >0x1A4 TIF> >0x1A4 TIF> >0x1A4 TIF> >0x1A4 TIF> >0x1A4 TIF> >0x1A4 TIF> >0x1A4 TIF> >0x1D7 TIF> (0032ms, 2651ms total)
T0FFC 002:783 JLINK_IsHalted() >0x13A TIF> >0x11E4 TIF> >0x1D5 TIF>  returns TRUE (0010ms, 2683ms total)
T0FFC 002:793 JLINK_ReadReg(R15)  returns 0x20000000 (0000ms, 2683ms total)
T0FFC 002:793 JLINK_ClrBPEx(BPHandle = 0x00000001)  returns 0x00 (0000ms, 2683ms total)
T0FFC 002:794 JLINK_ReadReg(R0)  returns 0x00000000 (0000ms, 2683ms total)
T0FFC 002:794 JLINK_WriteReg(R0, 0x08000000)  returns 0x00 (0000ms, 2683ms total)
T0FFC 002:794 JLINK_WriteReg(R1, 0x00004000)  returns 0x00 (0000ms, 2683ms total)
T0FFC 002:794 JLINK_WriteReg(R2, 0x000000FF)  returns 0x00 (0000ms, 2683ms total)
T0FFC 002:794 JLINK_WriteReg(R3, 0x00000000)  returns 0x00 (0000ms, 2683ms total)
T0FFC 002:794 JLINK_WriteReg(R4, 0x00000000)  returns 0x00 (0000ms, 2683ms total)
T0FFC 002:794 JLINK_WriteReg(R5, 0x00000000)  returns 0x00 (0000ms, 2683ms total)
T0FFC 002:794 JLINK_WriteReg(R6, 0x00000000)  returns 0x00 (0000ms, 2683ms total)
T0FFC 002:794 JLINK_WriteReg(R7, 0x00000000)  returns 0x00 (0000ms, 2683ms total)
T0FFC 002:794 JLINK_WriteReg(R8, 0x00000000)  returns 0x00 (0000ms, 2683ms total)
T0FFC 002:794 JLINK_WriteReg(R9, 0x2000017C)  returns 0x00 (0000ms, 2683ms total)
T0FFC 002:794 JLINK_WriteReg(R10, 0x00000000)  returns 0x00 (0000ms, 2683ms total)
T0FFC 002:794 JLINK_WriteReg(R11, 0x00000000)  returns 0x00 (0000ms, 2683ms total)
T0FFC 002:794 JLINK_WriteReg(R12, 0x00000000)  returns 0x00 (0000ms, 2683ms total)
T0FFC 002:794 JLINK_WriteReg(R13, 0x20000800)  returns 0x00 (0001ms, 2683ms total)
T0FFC 002:795 JLINK_WriteReg(R14, 0x20000001)  returns 0x00 (0000ms, 2684ms total)
T0FFC 002:795 JLINK_WriteReg(R15, 0x20000020)  returns 0x00 (0000ms, 2684ms total)
T0FFC 002:795 JLINK_WriteReg(XPSR, 0x01000000)  returns 0x00 (0000ms, 2684ms total)
T0FFC 002:795 JLINK_WriteReg(MSP, 0x20000800)  returns 0x00 (0000ms, 2684ms total)
T0FFC 002:795 JLINK_WriteReg(PSP, 0x20000800)  returns 0x00 (0000ms, 2684ms total)
T0FFC 002:795 JLINK_WriteReg(BASEPRI, 0x00000000)  returns 0x00 (0000ms, 2684ms total)
T0FFC 002:795 JLINK_WriteReg(CONTROL, 0x00000000)  returns 0x00 (0000ms, 2684ms total)
T0FFC 002:795 JLINK_WriteReg(FAULTMASK, 0x00000000)  returns 0x00 (0000ms, 2684ms total)
T0FFC 002:795 JLINK_WriteReg(BASEPRI_MAX, 0x00000000)  returns 0x00 (0000ms, 2684ms total)
T0FFC 002:795 JLINK_SetBPEx(Addr = 0x20000000, Type = 0xFFFFFFF2)  returns 0x00000002 (0000ms, 2684ms total)
T0FFC 002:795 JLINK_Go() >0x1D7 TIF> >0x1D7 TIF> >0x1D7 TIF> >0x1D7 TIF> >0x1D7 TIF> >0x1D7 TIF> >0x278 TIF> >0x1A4 TIF> >0x1A4 TIF> >0x1A4 TIF> >0x1A4 TIF> >0x1D7 TIF> (0024ms, 2684ms total)
T0FFC 002:819 JLINK_IsHalted() >0x13A TIF> >0x11E4 TIF> >0x1D5 TIF>  returns TRUE (0010ms, 2708ms total)
T0FFC 002:829 JLINK_ReadReg(R15)  returns 0x20000000 (0000ms, 2708ms total)
T0FFC 002:829 JLINK_ClrBPEx(BPHandle = 0x00000002)  returns 0x00 (0000ms, 2708ms total)
T0FFC 002:830 JLINK_ReadReg(R0)  returns 0x00000001 (0000ms, 2709ms total)
T0FFC 002:830 JLINK_WriteReg(R0, 0x08000000)  returns 0x00 (0000ms, 2709ms total)
T0FFC 002:830 JLINK_WriteReg(R1, 0x00004000)  returns 0x00 (0000ms, 2709ms total)
T0FFC 002:830 JLINK_WriteReg(R2, 0x000000FF)  returns 0x00 (0000ms, 2709ms total)
T0FFC 002:830 JLINK_WriteReg(R3, 0x00000000)  returns 0x00 (0000ms, 2709ms total)
T0FFC 002:830 JLINK_WriteReg(R4, 0x00000000)  returns 0x00 (0000ms, 2709ms total)
T0FFC 002:830 JLINK_WriteReg(R5, 0x00000000)  returns 0x00 (0000ms, 2709ms total)
T0FFC 002:830 JLINK_WriteReg(R6, 0x00000000)  returns 0x00 (0000ms, 2709ms total)
T0FFC 002:830 JLINK_WriteReg(R7, 0x00000000)  returns 0x00 (0000ms, 2709ms total)
T0FFC 002:830 JLINK_WriteReg(R8, 0x00000000)  returns 0x00 (0000ms, 2709ms total)
T0FFC 002:830 JLINK_WriteReg(R9, 0x2000017C)  returns 0x00 (0000ms, 2709ms total)
T0FFC 002:830 JLINK_WriteReg(R10, 0x00000000)  returns 0x00 (0000ms, 2709ms total)
T0FFC 002:830 JLINK_WriteReg(R11, 0x00000000)  returns 0x00 (0000ms, 2709ms total)
T0FFC 002:830 JLINK_WriteReg(R12, 0x00000000)  returns 0x00 (0000ms, 2709ms total)
T0FFC 002:830 JLINK_WriteReg(R13, 0x20000800)  returns 0x00 (0000ms, 2709ms total)
T0FFC 002:830 JLINK_WriteReg(R14, 0x20000001)  returns 0x00 (0000ms, 2709ms total)
T0FFC 002:830 JLINK_WriteReg(R15, 0x200000BC)  returns 0x00 (0000ms, 2709ms total)
T0FFC 002:830 JLINK_WriteReg(XPSR, 0x01000000)  returns 0x00 (0000ms, 2709ms total)
T0FFC 002:830 JLINK_WriteReg(MSP, 0x20000800)  returns 0x00 (0000ms, 2709ms total)
T0FFC 002:830 JLINK_WriteReg(PSP, 0x20000800)  returns 0x00 (0000ms, 2709ms total)
T0FFC 002:830 JLINK_WriteReg(BASEPRI, 0x00000000)  returns 0x00 (0000ms, 2709ms total)
T0FFC 002:830 JLINK_WriteReg(CONTROL, 0x00000000)  returns 0x00 (0000ms, 2709ms total)
T0FFC 002:830 JLINK_WriteReg(FAULTMASK, 0x00000000)  returns 0x00 (0001ms, 2709ms total)
T0FFC 002:831 JLINK_WriteReg(BASEPRI_MAX, 0x00000000)  returns 0x00 (0000ms, 2710ms total)
T0FFC 002:831 JLINK_SetBPEx(Addr = 0x20000000, Type = 0xFFFFFFF2)  returns 0x00000003 (0000ms, 2710ms total)
T0FFC 002:831 JLINK_Go() >0x1D7 TIF> >0x1D7 TIF> >0x1D7 TIF> >0x1D7 TIF> >0x1D7 TIF> >0x1D7 TIF> >0x278 TIF> >0x1A4 TIF> >0x1A4 TIF> >0x1A4 TIF> >0x1D7 TIF> (0021ms, 2710ms total)
T0FFC 002:852 JLINK_IsHalted() >0x13A TIF>  returns FALSE (0002ms, 2731ms total)
T0FFC 002:904 JLINK_IsHalted() >0x13A TIF>  returns FALSE (0001ms, 2731ms total)
T0FFC 002:955 JLINK_IsHalted() >0x13A TIF>  returns FALSE (0001ms, 2731ms total)
T0FFC 003:006 JLINK_IsHalted() >0x13A TIF>  returns FALSE (0001ms, 2731ms total)
T0FFC 003:057 JLINK_IsHalted() >0x13A TIF>  returns FALSE (0001ms, 2731ms total)
T0FFC 003:108 JLINK_IsHalted() >0x13A TIF>  returns FALSE (0001ms, 2731ms total)
T0FFC 003:159 JLINK_IsHalted() >0x13A TIF>  returns FALSE (0001ms, 2731ms total)
T0FFC 003:210 JLINK_IsHalted() >0x13A TIF>  returns FALSE (0001ms, 2731ms total)
T0FFC 003:261 JLINK_IsHalted() >0x13A TIF>  returns FALSE (0001ms, 2731ms total)
T0FFC 003:312 JLINK_IsHalted() >0x13A TIF> >0x11E4 TIF> >0x1D5 TIF>  returns TRUE (0009ms, 2731ms total)
T0FFC 003:321 JLINK_ReadReg(R15)  returns 0x20000000 (0000ms, 2731ms total)
T0FFC 003:321 JLINK_ClrBPEx(BPHandle = 0x00000003)  returns 0x00 (0000ms, 2731ms total)
T0FFC 003:322 JLINK_ReadReg(R0)  returns 0x00000000 (0000ms, 2732ms total)
T0FFC 003:322 JLINK_WriteReg(R0, 0x08004000)  returns 0x00 (0000ms, 2732ms total)
T0FFC 003:322 JLINK_WriteReg(R1, 0x00004000)  returns 0x00 (0000ms, 2732ms total)
T0FFC 003:322 JLINK_WriteReg(R2, 0x000000FF)  returns 0x00 (0000ms, 2732ms total)
T0FFC 003:322 JLINK_WriteReg(R3, 0x00000000)  returns 0x00 (0000ms, 2732ms total)
T0FFC 003:322 JLINK_WriteReg(R4, 0x00000000)  returns 0x00 (0001ms, 2732ms total)
T0FFC 003:323 JLINK_WriteReg(R5, 0x00000000)  returns 0x00 (0000ms, 2733ms total)
T0FFC 003:323 JLINK_WriteReg(R6, 0x00000000)  returns 0x00 (0000ms, 2733ms total)
T0FFC 003:323 JLINK_WriteReg(R7, 0x00000000)  returns 0x00 (0000ms, 2733ms total)
T0FFC 003:323 JLINK_WriteReg(R8, 0x00000000)  returns 0x00 (0000ms, 2733ms total)
T0FFC 003:323 JLINK_WriteReg(R9, 0x2000017C)  returns 0x00 (0000ms, 2733ms total)
T0FFC 003:323 JLINK_WriteReg(R10, 0x00000000)  returns 0x00 (0000ms, 2733ms total)
T0FFC 003:323 JLINK_WriteReg(R11, 0x00000000)  returns 0x00 (0000ms, 2733ms total)
T0FFC 003:323 JLINK_WriteReg(R12, 0x00000000)  returns 0x00 (0000ms, 2733ms total)
T0FFC 003:323 JLINK_WriteReg(R13, 0x20000800)  returns 0x00 (0000ms, 2733ms total)
T0FFC 003:323 JLINK_WriteReg(R14, 0x20000001)  returns 0x00 (0000ms, 2733ms total)
T0FFC 003:323 JLINK_WriteReg(R15, 0x20000020)  returns 0x00 (0000ms, 2733ms total)
T0FFC 003:323 JLINK_WriteReg(XPSR, 0x01000000)  returns 0x00 (0000ms, 2733ms total)
T0FFC 003:323 JLINK_WriteReg(MSP, 0x20000800)  returns 0x00 (0000ms, 2733ms total)
T0FFC 003:323 JLINK_WriteReg(PSP, 0x20000800)  returns 0x00 (0000ms, 2733ms total)
T0FFC 003:323 JLINK_WriteReg(BASEPRI, 0x00000000)  returns 0x00 (0000ms, 2733ms total)
T0FFC 003:323 JLINK_WriteReg(CONTROL, 0x00000000)  returns 0x00 (0000ms, 2733ms total)
T0FFC 003:323 JLINK_WriteReg(FAULTMASK, 0x00000000)  returns 0x00 (0000ms, 2733ms total)
T0FFC 003:323 JLINK_WriteReg(BASEPRI_MAX, 0x00000000)  returns 0x00 (0000ms, 2733ms total)
T0FFC 003:323 JLINK_SetBPEx(Addr = 0x20000000, Type = 0xFFFFFFF2)  returns 0x00000004 (0000ms, 2733ms total)
T0FFC 003:323 JLINK_Go() >0x1D7 TIF> >0x1D7 TIF> >0x1D7 TIF> >0x1D7 TIF> >0x1D7 TIF> >0x1D7 TIF> >0x278 TIF> >0x1A4 TIF> >0x1A4 TIF> >0x1A4 TIF> >0x1A4 TIF> >0x1A4 TIF> >0x1A4 TIF> >0x1D7 TIF> (0028ms, 2733ms total)
T0FFC 003:352 JLINK_IsHalted() >0x13A TIF> >0x11E4 TIF> >0x1D5 TIF>  returns TRUE (0010ms, 2761ms total)
T0FFC 003:362 JLINK_ReadReg(R15)  returns 0x20000000 (0000ms, 2761ms total)
T0FFC 003:362 JLINK_ClrBPEx(BPHandle = 0x00000004)  returns 0x00 (0000ms, 2761ms total)
T0FFC 003:362 JLINK_ReadReg(R0)  returns 0x00000001 (0000ms, 2761ms total)
T0FFC 003:363 JLINK_WriteReg(R0, 0x08004000)  returns 0x00 (0000ms, 2762ms total)
T0FFC 003:363 JLINK_WriteReg(R1, 0x00004000)  returns 0x00 (0000ms, 2762ms total)
T0FFC 003:363 JLINK_WriteReg(R2, 0x000000FF)  returns 0x00 (0000ms, 2762ms total)
T0FFC 003:363 JLINK_WriteReg(R3, 0x00000000)  returns 0x00 (0000ms, 2762ms total)
T0FFC 003:363 JLINK_WriteReg(R4, 0x00000000)  returns 0x00 (0000ms, 2762ms total)
T0FFC 003:363 JLINK_WriteReg(R5, 0x00000000)  returns 0x00 (0000ms, 2762ms total)
T0FFC 003:363 JLINK_WriteReg(R6, 0x00000000)  returns 0x00 (0000ms, 2762ms total)
T0FFC 003:363 JLINK_WriteReg(R7, 0x00000000)  returns 0x00 (0000ms, 2762ms total)
T0FFC 003:363 JLINK_WriteReg(R8, 0x00000000)  returns 0x00 (0000ms, 2762ms total)
T0FFC 003:363 JLINK_WriteReg(R9, 0x2000017C)  returns 0x00 (0000ms, 2762ms total)
T0FFC 003:363 JLINK_WriteReg(R10, 0x00000000)  returns 0x00 (0000ms, 2762ms total)
T0FFC 003:363 JLINK_WriteReg(R11, 0x00000000)  returns 0x00 (0000ms, 2762ms total)
T0FFC 003:363 JLINK_WriteReg(R12, 0x00000000)  returns 0x00 (0000ms, 2762ms total)
T0FFC 003:363 JLINK_WriteReg(R13, 0x20000800)  returns 0x00 (0000ms, 2762ms total)
T0FFC 003:363 JLINK_WriteReg(R14, 0x20000001)  returns 0x00 (0000ms, 2762ms total)
T0FFC 003:363 JLINK_WriteReg(R15, 0x200000BC)  returns 0x00 (0000ms, 2762ms total)
T0FFC 003:363 JLINK_WriteReg(XPSR, 0x01000000)  returns 0x00 (0000ms, 2762ms total)
T0FFC 003:363 JLINK_WriteReg(MSP, 0x20000800)  returns 0x00 (0000ms, 2762ms total)
T0FFC 003:363 JLINK_WriteReg(PSP, 0x20000800)  returns 0x00 (0000ms, 2762ms total)
T0FFC 003:363 JLINK_WriteReg(BASEPRI, 0x00000000)  returns 0x00 (0000ms, 2762ms total)
T0FFC 003:363 JLINK_WriteReg(CONTROL, 0x00000000)  returns 0x00 (0000ms, 2762ms total)
T0FFC 003:363 JLINK_WriteReg(FAULTMASK, 0x00000000)  returns 0x00 (0000ms, 2762ms total)
T0FFC 003:363 JLINK_WriteReg(BASEPRI_MAX, 0x00000000)  returns 0x00 (0000ms, 2762ms total)
T0FFC 003:364 JLINK_SetBPEx(Addr = 0x20000000, Type = 0xFFFFFFF2)  returns 0x00000005 (0000ms, 2763ms total)
T0FFC 003:364 JLINK_Go() >0x1D7 TIF> >0x1D7 TIF> >0x1D7 TIF> >0x1D7 TIF> >0x1D7 TIF> >0x1D7 TIF> >0x278 TIF> >0x1A4 TIF> >0x1A4 TIF> >0x1A4 TIF> >0x1D7 TIF> (0021ms, 2763ms total)
T0FFC 003:385 JLINK_IsHalted() >0x13A TIF>  returns FALSE (0002ms, 2784ms total)
T0FFC 003:438 JLINK_IsHalted() >0x13A TIF>  returns FALSE (0002ms, 2784ms total)
T0FFC 003:490 JLINK_IsHalted() >0x13A TIF>  returns FALSE (0001ms, 2784ms total)
T0FFC 003:541 JLINK_IsHalted() >0x13A TIF>  returns FALSE (0002ms, 2784ms total)
T0FFC 003:593 JLINK_IsHalted() >0x13A TIF>  returns FALSE (0001ms, 2784ms total)
T0FFC 003:644 JLINK_IsHalted() >0x13A TIF>  returns FALSE (0001ms, 2784ms total)
T0FFC 003:695 JLINK_IsHalted() >0x13A TIF>  returns FALSE (0001ms, 2784ms total)
T0FFC 003:746 JLINK_IsHalted() >0x13A TIF>  returns FALSE (0001ms, 2784ms total)
T0FFC 003:797 JLINK_IsHalted() >0x13A TIF>  returns FALSE (0001ms, 2784ms total)
T0FFC 003:848 JLINK_IsHalted() >0x13A TIF> >0x11E4 TIF> >0x1D5 TIF>  returns TRUE (0009ms, 2784ms total)
T0FFC 003:857 JLINK_ReadReg(R15)  returns 0x20000000 (0000ms, 2784ms total)
T0FFC 003:857 JLINK_ClrBPEx(BPHandle = 0x00000005)  returns 0x00 (0000ms, 2784ms total)
T0FFC 003:857 JLINK_ReadReg(R0)  returns 0x00000000 (0000ms, 2784ms total)
T0FFC 003:858 JLINK_WriteReg(R0, 0x08008000)  returns 0x00 (0000ms, 2784ms total)
T0FFC 003:858 JLINK_WriteReg(R1, 0x00004000)  returns 0x00 (0000ms, 2784ms total)
T0FFC 003:858 JLINK_WriteReg(R2, 0x000000FF)  returns 0x00 (0000ms, 2784ms total)
T0FFC 003:858 JLINK_WriteReg(R3, 0x00000000)  returns 0x00 (0000ms, 2784ms total)
T0FFC 003:858 JLINK_WriteReg(R4, 0x00000000)  returns 0x00 (0000ms, 2784ms total)
T0FFC 003:858 JLINK_WriteReg(R5, 0x00000000)  returns 0x00 (0000ms, 2784ms total)
T0FFC 003:858 JLINK_WriteReg(R6, 0x00000000)  returns 0x00 (0000ms, 2784ms total)
T0FFC 003:858 JLINK_WriteReg(R7, 0x00000000)  returns 0x00 (0001ms, 2784ms total)
T0FFC 003:859 JLINK_WriteReg(R8, 0x00000000)  returns 0x00 (0000ms, 2785ms total)
T0FFC 003:859 JLINK_WriteReg(R9, 0x2000017C)  returns 0x00 (0000ms, 2785ms total)
T0FFC 003:859 JLINK_WriteReg(R10, 0x00000000)  returns 0x00 (0000ms, 2785ms total)
T0FFC 003:859 JLINK_WriteReg(R11, 0x00000000)  returns 0x00 (0000ms, 2785ms total)
T0FFC 003:859 JLINK_WriteReg(R12, 0x00000000)  returns 0x00 (0000ms, 2785ms total)
T0FFC 003:859 JLINK_WriteReg(R13, 0x20000800)  returns 0x00 (0000ms, 2785ms total)
T0FFC 003:859 JLINK_WriteReg(R14, 0x20000001)  returns 0x00 (0000ms, 2785ms total)
T0FFC 003:859 JLINK_WriteReg(R15, 0x20000020)  returns 0x00 (0000ms, 2785ms total)
T0FFC 003:859 JLINK_WriteReg(XPSR, 0x01000000)  returns 0x00 (0000ms, 2785ms total)
T0FFC 003:859 JLINK_WriteReg(MSP, 0x20000800)  returns 0x00 (0000ms, 2785ms total)
T0FFC 003:859 JLINK_WriteReg(PSP, 0x20000800)  returns 0x00 (0000ms, 2785ms total)
T0FFC 003:859 JLINK_WriteReg(BASEPRI, 0x00000000)  returns 0x00 (0000ms, 2785ms total)
T0FFC 003:859 JLINK_WriteReg(CONTROL, 0x00000000)  returns 0x00 (0000ms, 2785ms total)
T0FFC 003:859 JLINK_WriteReg(FAULTMASK, 0x00000000)  returns 0x00 (0000ms, 2785ms total)
T0FFC 003:859 JLINK_WriteReg(BASEPRI_MAX, 0x00000000)  returns 0x00 (0000ms, 2785ms total)
T0FFC 003:859 JLINK_SetBPEx(Addr = 0x20000000, Type = 0xFFFFFFF2)  returns 0x00000006 (0000ms, 2785ms total)
T0FFC 003:859 JLINK_Go() >0x1D7 TIF> >0x1D7 TIF> >0x1D7 TIF> >0x1D7 TIF> >0x1D7 TIF> >0x1D7 TIF> >0x278 TIF> >0x1A4 TIF> >0x1A4 TIF> >0x1A4 TIF> >0x1A4 TIF> >0x1A4 TIF> >0x1A4 TIF> >0x1D7 TIF> (0028ms, 2785ms total)
T0FFC 003:887 JLINK_IsHalted() >0x13A TIF> >0x11E4 TIF> >0x1D5 TIF>  returns TRUE (0010ms, 2813ms total)
T0FFC 003:897 JLINK_ReadReg(R15)  returns 0x20000000 (0000ms, 2813ms total)
T0FFC 003:897 JLINK_ClrBPEx(BPHandle = 0x00000006)  returns 0x00 (0000ms, 2813ms total)
T0FFC 003:897 JLINK_ReadReg(R0)  returns 0x00000001 (0000ms, 2813ms total)
T0FFC 003:897 JLINK_WriteReg(R0, 0x08008000)  returns 0x00 (0001ms, 2813ms total)
T0FFC 003:898 JLINK_WriteReg(R1, 0x00004000)  returns 0x00 (0000ms, 2814ms total)
T0FFC 003:898 JLINK_WriteReg(R2, 0x000000FF)  returns 0x00 (0000ms, 2814ms total)
T0FFC 003:898 JLINK_WriteReg(R3, 0x00000000)  returns 0x00 (0000ms, 2814ms total)
T0FFC 003:898 JLINK_WriteReg(R4, 0x00000000)  returns 0x00 (0000ms, 2814ms total)
T0FFC 003:898 JLINK_WriteReg(R5, 0x00000000)  returns 0x00 (0000ms, 2814ms total)
T0FFC 003:898 JLINK_WriteReg(R6, 0x00000000)  returns 0x00 (0000ms, 2814ms total)
T0FFC 003:898 JLINK_WriteReg(R7, 0x00000000)  returns 0x00 (0000ms, 2814ms total)
T0FFC 003:898 JLINK_WriteReg(R8, 0x00000000)  returns 0x00 (0000ms, 2814ms total)
T0FFC 003:898 JLINK_WriteReg(R9, 0x2000017C)  returns 0x00 (0000ms, 2814ms total)
T0FFC 003:898 JLINK_WriteReg(R10, 0x00000000)  returns 0x00 (0000ms, 2814ms total)
T0FFC 003:898 JLINK_WriteReg(R11, 0x00000000)  returns 0x00 (0000ms, 2814ms total)
T0FFC 003:898 JLINK_WriteReg(R12, 0x00000000)  returns 0x00 (0000ms, 2814ms total)
T0FFC 003:898 JLINK_WriteReg(R13, 0x20000800)  returns 0x00 (0000ms, 2814ms total)
T0FFC 003:898 JLINK_WriteReg(R14, 0x20000001)  returns 0x00 (0000ms, 2814ms total)
T0FFC 003:898 JLINK_WriteReg(R15, 0x200000BC)  returns 0x00 (0000ms, 2814ms total)
T0FFC 003:898 JLINK_WriteReg(XPSR, 0x01000000)  returns 0x00 (0000ms, 2814ms total)
T0FFC 003:898 JLINK_WriteReg(MSP, 0x20000800)  returns 0x00 (0000ms, 2814ms total)
T0FFC 003:898 JLINK_WriteReg(PSP, 0x20000800)  returns 0x00 (0000ms, 2814ms total)
T0FFC 003:898 JLINK_WriteReg(BASEPRI, 0x00000000)  returns 0x00 (0000ms, 2814ms total)
T0FFC 003:898 JLINK_WriteReg(CONTROL, 0x00000000)  returns 0x00 (0000ms, 2814ms total)
T0FFC 003:898 JLINK_WriteReg(FAULTMASK, 0x00000000)  returns 0x00 (0000ms, 2814ms total)
T0FFC 003:898 JLINK_WriteReg(BASEPRI_MAX, 0x00000000)  returns 0x00 (0000ms, 2814ms total)
T0FFC 003:898 JLINK_SetBPEx(Addr = 0x20000000, Type = 0xFFFFFFF2)  returns 0x00000007 (0001ms, 2814ms total)
T0FFC 003:899 JLINK_Go() >0x1D7 TIF> >0x1D7 TIF> >0x1D7 TIF> >0x1D7 TIF> >0x1D7 TIF> >0x1D7 TIF> >0x278 TIF> >0x1A4 TIF> >0x1A4 TIF> >0x1A4 TIF> >0x1D7 TIF> (0021ms, 2815ms total)
T0FFC 003:920 JLINK_IsHalted() >0x13A TIF>  returns FALSE (0002ms, 2836ms total)
T0FFC 003:972 JLINK_IsHalted() >0x13A TIF>  returns FALSE (0001ms, 2836ms total)
T0FFC 004:023 JLINK_IsHalted() >0x13A TIF>  returns FALSE (0001ms, 2836ms total)
T0FFC 004:074 JLINK_IsHalted() >0x13A TIF>  returns FALSE (0001ms, 2836ms total)
T0FFC 004:125 JLINK_IsHalted() >0x13A TIF>  returns FALSE (0001ms, 2836ms total)
T0FFC 004:176 JLINK_IsHalted() >0x13A TIF>  returns FALSE (0001ms, 2836ms total)
T0FFC 004:227 JLINK_IsHalted() >0x13A TIF>  returns FALSE (0001ms, 2836ms total)
T0FFC 004:278 JLINK_IsHalted() >0x13A TIF>  returns FALSE (0001ms, 2836ms total)
T0FFC 004:329 JLINK_IsHalted() >0x13A TIF> >0x11E4 TIF> >0x1D5 TIF>  returns TRUE (0009ms, 2836ms total)
T0FFC 004:338 JLINK_ReadReg(R15)  returns 0x20000000 (0000ms, 2836ms total)
T0FFC 004:338 JLINK_ClrBPEx(BPHandle = 0x00000007)  returns 0x00 (0000ms, 2836ms total)
T0FFC 004:338 JLINK_ReadReg(R0)  returns 0x00000000 (0000ms, 2836ms total)
T0FFC 004:339 JLINK_WriteReg(R0, 0x00000001)  returns 0x00 (0000ms, 2836ms total)
T0FFC 004:339 JLINK_WriteReg(R1, 0x00004000)  returns 0x00 (0000ms, 2836ms total)
T0FFC 004:339 JLINK_WriteReg(R2, 0x000000FF)  returns 0x00 (0000ms, 2836ms total)
T0FFC 004:339 JLINK_WriteReg(R3, 0x00000000)  returns 0x00 (0000ms, 2836ms total)
T0FFC 004:339 JLINK_WriteReg(R4, 0x00000000)  returns 0x00 (0000ms, 2836ms total)
T0FFC 004:339 JLINK_WriteReg(R5, 0x00000000)  returns 0x00 (0000ms, 2836ms total)
T0FFC 004:339 JLINK_WriteReg(R6, 0x00000000)  returns 0x00 (0000ms, 2836ms total)
T0FFC 004:339 JLINK_WriteReg(R7, 0x00000000)  returns 0x00 (0000ms, 2836ms total)
T0FFC 004:339 JLINK_WriteReg(R8, 0x00000000)  returns 0x00 (0000ms, 2836ms total)
T0FFC 004:339 JLINK_WriteReg(R9, 0x2000017C)  returns 0x00 (0000ms, 2836ms total)
T0FFC 004:339 JLINK_WriteReg(R10, 0x00000000)  returns 0x00 (0000ms, 2836ms total)
T0FFC 004:339 JLINK_WriteReg(R11, 0x00000000)  returns 0x00 (0000ms, 2836ms total)
T0FFC 004:339 JLINK_WriteReg(R12, 0x00000000)  returns 0x00 (0001ms, 2836ms total)
T0FFC 004:340 JLINK_WriteReg(R13, 0x20000800)  returns 0x00 (0000ms, 2837ms total)
T0FFC 004:340 JLINK_WriteReg(R14, 0x20000001)  returns 0x00 (0000ms, 2837ms total)
T0FFC 004:340 JLINK_WriteReg(R15, 0x20000082)  returns 0x00 (0000ms, 2837ms total)
T0FFC 004:340 JLINK_WriteReg(XPSR, 0x01000000)  returns 0x00 (0000ms, 2837ms total)
T0FFC 004:340 JLINK_WriteReg(MSP, 0x20000800)  returns 0x00 (0000ms, 2837ms total)
T0FFC 004:340 JLINK_WriteReg(PSP, 0x20000800)  returns 0x00 (0000ms, 2837ms total)
T0FFC 004:340 JLINK_WriteReg(BASEPRI, 0x00000000)  returns 0x00 (0000ms, 2837ms total)
T0FFC 004:340 JLINK_WriteReg(CONTROL, 0x00000000)  returns 0x00 (0000ms, 2837ms total)
T0FFC 004:340 JLINK_WriteReg(FAULTMASK, 0x00000000)  returns 0x00 (0000ms, 2837ms total)
T0FFC 004:340 JLINK_WriteReg(BASEPRI_MAX, 0x00000000)  returns 0x00 (0000ms, 2837ms total)
T0FFC 004:340 JLINK_SetBPEx(Addr = 0x20000000, Type = 0xFFFFFFF2)  returns 0x00000008 (0000ms, 2837ms total)
T0FFC 004:340 JLINK_Go() >0x1D7 TIF> >0x1D7 TIF> >0x1D7 TIF> >0x1D7 TIF> >0x1D7 TIF> >0x1D7 TIF> >0x278 TIF> >0x1A4 TIF> >0x1A4 TIF> >0x1A4 TIF> >0x1A4 TIF> >0x1A4 TIF> >0x1A4 TIF> >0x1D7 TIF> (0028ms, 2837ms total)
T0FFC 004:369 JLINK_IsHalted() >0x13A TIF> >0x11E4 TIF> >0x1D5 TIF>  returns TRUE (0010ms, 2865ms total)
T0FFC 004:379 JLINK_ReadReg(R15)  returns 0x20000000 (0000ms, 2865ms total)
T0FFC 004:379 JLINK_ClrBPEx(BPHandle = 0x00000008)  returns 0x00 (0000ms, 2865ms total)
T0FFC 004:379 JLINK_ReadReg(R0)  returns 0x00000000 (0000ms, 2865ms total)
T0FFC 004:438 JLINK_WriteMem(0x20000000, 0x0180 Bytes, ...) -- Data:  00 BE 0A E0 0D 78 2D 06 68 40 08 24 40 00 00 D3 ... >0x1582 TIF>  returns 0x180 (0006ms, 2865ms total)
T0FFC 004:444 JLINK_WriteReg(R0, 0x08000000)  returns 0x00 (0000ms, 2871ms total)
T0FFC 004:444 JLINK_WriteReg(R1, 0x017D7840)  returns 0x00 (0000ms, 2871ms total)
T0FFC 004:444 JLINK_WriteReg(R2, 0x00000002)  returns 0x00 (0000ms, 2871ms total)
T0FFC 004:444 JLINK_WriteReg(R3, 0x00000000)  returns 0x00 (0001ms, 2871ms total)
T0FFC 004:445 JLINK_WriteReg(R4, 0x00000000)  returns 0x00 (0000ms, 2872ms total)
T0FFC 004:445 JLINK_WriteReg(R5, 0x00000000)  returns 0x00 (0000ms, 2872ms total)
T0FFC 004:445 JLINK_WriteReg(R6, 0x00000000)  returns 0x00 (0000ms, 2872ms total)
T0FFC 004:445 JLINK_WriteReg(R7, 0x00000000)  returns 0x00 (0000ms, 2872ms total)
T0FFC 004:445 JLINK_WriteReg(R8, 0x00000000)  returns 0x00 (0000ms, 2872ms total)
T0FFC 004:445 JLINK_WriteReg(R9, 0x2000017C)  returns 0x00 (0000ms, 2872ms total)
T0FFC 004:445 JLINK_WriteReg(R10, 0x00000000)  returns 0x00 (0000ms, 2872ms total)
T0FFC 004:445 JLINK_WriteReg(R11, 0x00000000)  returns 0x00 (0000ms, 2872ms total)
T0FFC 004:445 JLINK_WriteReg(R12, 0x00000000)  returns 0x00 (0000ms, 2872ms total)
T0FFC 004:445 JLINK_WriteReg(R13, 0x20000800)  returns 0x00 (0000ms, 2872ms total)
T0FFC 004:445 JLINK_WriteReg(R14, 0x20000001)  returns 0x00 (0000ms, 2872ms total)
T0FFC 004:445 JLINK_WriteReg(R15, 0x20000054)  returns 0x00 (0000ms, 2872ms total)
T0FFC 004:445 JLINK_WriteReg(XPSR, 0x01000000)  returns 0x00 (0000ms, 2872ms total)
T0FFC 004:445 JLINK_WriteReg(MSP, 0x20000800)  returns 0x00 (0000ms, 2872ms total)
T0FFC 004:445 JLINK_WriteReg(PSP, 0x20000800)  returns 0x00 (0000ms, 2872ms total)
T0FFC 004:445 JLINK_WriteReg(BASEPRI, 0x00000000)  returns 0x00 (0000ms, 2872ms total)
T0FFC 004:445 JLINK_WriteReg(CONTROL, 0x00000000)  returns 0x00 (0000ms, 2872ms total)
T0FFC 004:445 JLINK_WriteReg(FAULTMASK, 0x00000000)  returns 0x00 (0000ms, 2872ms total)
T0FFC 004:445 JLINK_WriteReg(BASEPRI_MAX, 0x00000000)  returns 0x00 (0000ms, 2872ms total)
T0FFC 004:445 JLINK_SetBPEx(Addr = 0x20000000, Type = 0xFFFFFFF2) >0x1D5 TIF> >0x1D7 TIF> >0x1D5 TIF> >0x1D7 TIF> >0x1D5 TIF>  returns 0x00000009 (0010ms, 2872ms total)
T0FFC 004:455 JLINK_Go() >0x1D7 TIF> >0x1D7 TIF> >0x1D7 TIF> >0x1D7 TIF> >0x1D7 TIF> >0x1D7 TIF> >0x1D7 TIF> >0x278 TIF> >0x1A4 TIF> >0x1A4 TIF> >0x1A4 TIF> >0x1A4 TIF> >0x1D7 TIF> (0026ms, 2882ms total)
T0FFC 004:481 JLINK_IsHalted() >0x13A TIF> >0x11E4 TIF> >0x1D5 TIF>  returns TRUE (0010ms, 2908ms total)
T0FFC 004:491 JLINK_ReadReg(R15)  returns 0x20000000 (0000ms, 2908ms total)
T0FFC 004:491 JLINK_ClrBPEx(BPHandle = 0x00000009)  returns 0x00 (0000ms, 2908ms total)
T0FFC 004:491 JLINK_ReadReg(R0)  returns 0x00000000 (0001ms, 2908ms total)
T0FFC 004:492 JLINK_WriteMem(0x20000180, 0x0400 Bytes, ...) -- Data:  70 D0 00 20 25 02 00 08 31 18 00 08 FD 11 00 08 ... >0x36A2 TIF>  returns 0x400 (0014ms, 2909ms total)
T0FFC 004:506 JLINK_WriteReg(R0, 0x08000000)  returns 0x00 (0000ms, 2923ms total)
T0FFC 004:506 JLINK_WriteReg(R1, 0x00000400)  returns 0x00 (0000ms, 2923ms total)
T0FFC 004:506 JLINK_WriteReg(R2, 0x20000180)  returns 0x00 (0000ms, 2923ms total)
T0FFC 004:506 JLINK_WriteReg(R3, 0x00000000)  returns 0x00 (0001ms, 2923ms total)
T0FFC 004:507 JLINK_WriteReg(R4, 0x00000000)  returns 0x00 (0000ms, 2924ms total)
T0FFC 004:507 JLINK_WriteReg(R5, 0x00000000)  returns 0x00 (0000ms, 2924ms total)
T0FFC 004:507 JLINK_WriteReg(R6, 0x00000000)  returns 0x00 (0000ms, 2924ms total)
T0FFC 004:507 JLINK_WriteReg(R7, 0x00000000)  returns 0x00 (0000ms, 2924ms total)
T0FFC 004:507 JLINK_WriteReg(R8, 0x00000000)  returns 0x00 (0000ms, 2924ms total)
T0FFC 004:507 JLINK_WriteReg(R9, 0x2000017C)  returns 0x00 (0000ms, 2924ms total)
T0FFC 004:507 JLINK_WriteReg(R10, 0x00000000)  returns 0x00 (0000ms, 2924ms total)
T0FFC 004:507 JLINK_WriteReg(R11, 0x00000000)  returns 0x00 (0000ms, 2924ms total)
T0FFC 004:507 JLINK_WriteReg(R12, 0x00000000)  returns 0x00 (0000ms, 2924ms total)
T0FFC 004:507 JLINK_WriteReg(R13, 0x20000800)  returns 0x00 (0000ms, 2924ms total)
T0FFC 004:507 JLINK_WriteReg(R14, 0x20000001)  returns 0x00 (0000ms, 2924ms total)
T0FFC 004:507 JLINK_WriteReg(R15, 0x20000108)  returns 0x00 (0000ms, 2924ms total)
T0FFC 004:507 JLINK_WriteReg(XPSR, 0x01000000)  returns 0x00 (0000ms, 2924ms total)
T0FFC 004:507 JLINK_WriteReg(MSP, 0x20000800)  returns 0x00 (0000ms, 2924ms total)
T0FFC 004:507 JLINK_WriteReg(PSP, 0x20000800)  returns 0x00 (0000ms, 2924ms total)
T0FFC 004:507 JLINK_WriteReg(BASEPRI, 0x00000000)  returns 0x00 (0000ms, 2924ms total)
T0FFC 004:507 JLINK_WriteReg(CONTROL, 0x00000000)  returns 0x00 (0000ms, 2924ms total)
T0FFC 004:507 JLINK_WriteReg(FAULTMASK, 0x00000000)  returns 0x00 (0000ms, 2924ms total)
T0FFC 004:507 JLINK_WriteReg(BASEPRI_MAX, 0x00000000)  returns 0x00 (0000ms, 2924ms total)
T0FFC 004:507 JLINK_SetBPEx(Addr = 0x20000000, Type = 0xFFFFFFF2)  returns 0x0000000A (0000ms, 2924ms total)
T0FFC 004:507 JLINK_Go() >0x1D7 TIF> >0x1D7 TIF> >0x1D7 TIF> >0x1D7 TIF> >0x1D7 TIF> >0x1D7 TIF> >0x278 TIF> >0x1A4 TIF> >0x1A4 TIF> >0x1A4 TIF> >0x1A4 TIF> >0x1D7 TIF> (0024ms, 2924ms total)
T0FFC 004:531 JLINK_IsHalted() >0x13A TIF>  returns FALSE (0002ms, 2948ms total)
T0FFC 004:583 JLINK_IsHalted() >0x13A TIF> >0x11E4 TIF> >0x1D5 TIF>  returns TRUE (0010ms, 2948ms total)
T0FFC 004:593 JLINK_ReadReg(R15)  returns 0x20000000 (0000ms, 2948ms total)
T0FFC 004:593 JLINK_ClrBPEx(BPHandle = 0x0000000A)  returns 0x00 (0000ms, 2948ms total)
T0FFC 004:593 JLINK_ReadReg(R0)  returns 0x00000000 (0000ms, 2948ms total)
T0FFC 004:594 JLINK_WriteMem(0x20000180, 0x0400 Bytes, ...) -- Data:  AC 42 F6 D3 FF F7 C4 FE 9C AD 00 08 BC AD 00 08 ... >0x36A2 TIF>  returns 0x400 (0013ms, 2948ms total)
T0FFC 004:607 JLINK_WriteReg(R0, 0x08000400)  returns 0x00 (0000ms, 2961ms total)
T0FFC 004:607 JLINK_WriteReg(R1, 0x00000400)  returns 0x00 (0000ms, 2961ms total)
T0FFC 004:607 JLINK_WriteReg(R2, 0x20000180)  returns 0x00 (0001ms, 2961ms total)
T0FFC 004:608 JLINK_WriteReg(R3, 0x00000000)  returns 0x00 (0000ms, 2962ms total)
T0FFC 004:608 JLINK_WriteReg(R4, 0x00000000)  returns 0x00 (0000ms, 2962ms total)
T0FFC 004:608 JLINK_WriteReg(R5, 0x00000000)  returns 0x00 (0000ms, 2962ms total)
T0FFC 004:608 JLINK_WriteReg(R6, 0x00000000)  returns 0x00 (0000ms, 2962ms total)
T0FFC 004:608 JLINK_WriteReg(R7, 0x00000000)  returns 0x00 (0000ms, 2962ms total)
T0FFC 004:608 JLINK_WriteReg(R8, 0x00000000)  returns 0x00 (0000ms, 2962ms total)
T0FFC 004:608 JLINK_WriteReg(R9, 0x2000017C)  returns 0x00 (0000ms, 2962ms total)
T0FFC 004:608 JLINK_WriteReg(R10, 0x00000000)  returns 0x00 (0000ms, 2962ms total)
T0FFC 004:608 JLINK_WriteReg(R11, 0x00000000)  returns 0x00 (0000ms, 2962ms total)
T0FFC 004:608 JLINK_WriteReg(R12, 0x00000000)  returns 0x00 (0000ms, 2962ms total)
T0FFC 004:608 JLINK_WriteReg(R13, 0x20000800)  returns 0x00 (0000ms, 2962ms total)
T0FFC 004:608 JLINK_WriteReg(R14, 0x20000001)  returns 0x00 (0000ms, 2962ms total)
T0FFC 004:608 JLINK_WriteReg(R15, 0x20000108)  returns 0x00 (0000ms, 2962ms total)
T0FFC 004:608 JLINK_WriteReg(XPSR, 0x01000000)  returns 0x00 (0000ms, 2962ms total)
T0FFC 004:608 JLINK_WriteReg(MSP, 0x20000800)  returns 0x00 (0000ms, 2962ms total)
T0FFC 004:608 JLINK_WriteReg(PSP, 0x20000800)  returns 0x00 (0000ms, 2962ms total)
T0FFC 004:608 JLINK_WriteReg(BASEPRI, 0x00000000)  returns 0x00 (0000ms, 2962ms total)
T0FFC 004:608 JLINK_WriteReg(CONTROL, 0x00000000)  returns 0x00 (0000ms, 2962ms total)
T0FFC 004:608 JLINK_WriteReg(FAULTMASK, 0x00000000)  returns 0x00 (0000ms, 2962ms total)
T0FFC 004:608 JLINK_WriteReg(BASEPRI_MAX, 0x00000000)  returns 0x00 (0000ms, 2962ms total)
T0FFC 004:608 JLINK_SetBPEx(Addr = 0x20000000, Type = 0xFFFFFFF2)  returns 0x0000000B (0000ms, 2962ms total)
T0FFC 004:608 JLINK_Go() >0x1D7 TIF> >0x1D7 TIF> >0x1D7 TIF> >0x1D7 TIF> >0x1D7 TIF> >0x1D7 TIF> >0x278 TIF> >0x1A4 TIF> >0x1A4 TIF> >0x1A4 TIF> >0x1A4 TIF> >0x1A4 TIF> >0x1D7 TIF> (0027ms, 2962ms total)
T0FFC 004:635 JLINK_IsHalted() >0x13A TIF>  returns FALSE (0002ms, 2989ms total)
T0FFC 004:687 JLINK_IsHalted() >0x13A TIF> >0x11E4 TIF> >0x1D5 TIF>  returns TRUE (0009ms, 2989ms total)
T0FFC 004:696 JLINK_ReadReg(R15)  returns 0x20000000 (0000ms, 2989ms total)
T0FFC 004:696 JLINK_ClrBPEx(BPHandle = 0x0000000B)  returns 0x00 (0000ms, 2989ms total)
T0FFC 004:696 JLINK_ReadReg(R0)  returns 0x00000000 (0000ms, 2989ms total)
T0FFC 004:697 JLINK_WriteMem(0x20000180, 0x0400 Bytes, ...) -- Data:  EB FC 0B 22 04 21 20 46 00 F0 E6 FC 0B 22 05 21 ... >0x36A2 TIF>  returns 0x400 (0014ms, 2989ms total)
T0FFC 004:711 JLINK_WriteReg(R0, 0x08000800)  returns 0x00 (0000ms, 3003ms total)
T0FFC 004:711 JLINK_WriteReg(R1, 0x00000400)  returns 0x00 (0000ms, 3003ms total)
T0FFC 004:711 JLINK_WriteReg(R2, 0x20000180)  returns 0x00 (0000ms, 3003ms total)
T0FFC 004:711 JLINK_WriteReg(R3, 0x00000000)  returns 0x00 (0000ms, 3003ms total)
T0FFC 004:712 JLINK_WriteReg(R4, 0x00000000)  returns 0x00 (0000ms, 3004ms total)
T0FFC 004:712 JLINK_WriteReg(R5, 0x00000000)  returns 0x00 (0000ms, 3004ms total)
T0FFC 004:712 JLINK_WriteReg(R6, 0x00000000)  returns 0x00 (0000ms, 3004ms total)
T0FFC 004:712 JLINK_WriteReg(R7, 0x00000000)  returns 0x00 (0000ms, 3004ms total)
T0FFC 004:712 JLINK_WriteReg(R8, 0x00000000)  returns 0x00 (0000ms, 3004ms total)
T0FFC 004:712 JLINK_WriteReg(R9, 0x2000017C)  returns 0x00 (0000ms, 3004ms total)
T0FFC 004:712 JLINK_WriteReg(R10, 0x00000000)  returns 0x00 (0000ms, 3004ms total)
T0FFC 004:712 JLINK_WriteReg(R11, 0x00000000)  returns 0x00 (0000ms, 3004ms total)
T0FFC 004:712 JLINK_WriteReg(R12, 0x00000000)  returns 0x00 (0000ms, 3004ms total)
T0FFC 004:712 JLINK_WriteReg(R13, 0x20000800)  returns 0x00 (0000ms, 3004ms total)
T0FFC 004:712 JLINK_WriteReg(R14, 0x20000001)  returns 0x00 (0000ms, 3004ms total)
T0FFC 004:712 JLINK_WriteReg(R15, 0x20000108)  returns 0x00 (0000ms, 3004ms total)
T0FFC 004:712 JLINK_WriteReg(XPSR, 0x01000000)  returns 0x00 (0000ms, 3004ms total)
T0FFC 004:712 JLINK_WriteReg(MSP, 0x20000800)  returns 0x00 (0000ms, 3004ms total)
T0FFC 004:712 JLINK_WriteReg(PSP, 0x20000800)  returns 0x00 (0000ms, 3004ms total)
T0FFC 004:712 JLINK_WriteReg(BASEPRI, 0x00000000)  returns 0x00 (0000ms, 3004ms total)
T0FFC 004:712 JLINK_WriteReg(CONTROL, 0x00000000)  returns 0x00 (0000ms, 3004ms total)
T0FFC 004:712 JLINK_WriteReg(FAULTMASK, 0x00000000)  returns 0x00 (0000ms, 3004ms total)
T0FFC 004:712 JLINK_WriteReg(BASEPRI_MAX, 0x00000000)  returns 0x00 (0000ms, 3004ms total)
T0FFC 004:712 JLINK_SetBPEx(Addr = 0x20000000, Type = 0xFFFFFFF2)  returns 0x0000000C (0000ms, 3004ms total)
T0FFC 004:712 JLINK_Go() >0x1D7 TIF> >0x1D7 TIF> >0x1D7 TIF> >0x1D7 TIF> >0x1D7 TIF> >0x1D7 TIF> >0x278 TIF> >0x1A4 TIF> >0x1A4 TIF> >0x1A4 TIF> >0x1A4 TIF> >0x1A4 TIF> >0x1D7 TIF> (0026ms, 3004ms total)
T0FFC 004:738 JLINK_IsHalted() >0x13A TIF>  returns FALSE (0002ms, 3030ms total)
T0FFC 004:790 JLINK_IsHalted() >0x13A TIF> >0x11E4 TIF> >0x1D5 TIF>  returns TRUE (0009ms, 3030ms total)
T0FFC 004:799 JLINK_ReadReg(R15)  returns 0x20000000 (0000ms, 3030ms total)
T0FFC 004:799 JLINK_ClrBPEx(BPHandle = 0x0000000C)  returns 0x00 (0000ms, 3030ms total)
T0FFC 004:799 JLINK_ReadReg(R0)  returns 0x00000000 (0000ms, 3030ms total)
T0FFC 004:800 JLINK_WriteMem(0x20000180, 0x0400 Bytes, ...) -- Data:  FF F7 A0 FE 03 49 48 60 01 21 03 48 FF F7 18 FD ... >0x36A2 TIF>  returns 0x400 (0014ms, 3030ms total)
T0FFC 004:814 JLINK_WriteReg(R0, 0x08000C00)  returns 0x00 (0000ms, 3044ms total)
T0FFC 004:814 JLINK_WriteReg(R1, 0x00000400)  returns 0x00 (0000ms, 3044ms total)
T0FFC 004:814 JLINK_WriteReg(R2, 0x20000180)  returns 0x00 (0000ms, 3044ms total)
T0FFC 004:814 JLINK_WriteReg(R3, 0x00000000)  returns 0x00 (0001ms, 3044ms total)
T0FFC 004:815 JLINK_WriteReg(R4, 0x00000000)  returns 0x00 (0000ms, 3045ms total)
T0FFC 004:815 JLINK_WriteReg(R5, 0x00000000)  returns 0x00 (0000ms, 3045ms total)
T0FFC 004:815 JLINK_WriteReg(R6, 0x00000000)  returns 0x00 (0000ms, 3045ms total)
T0FFC 004:815 JLINK_WriteReg(R7, 0x00000000)  returns 0x00 (0000ms, 3045ms total)
T0FFC 004:815 JLINK_WriteReg(R8, 0x00000000)  returns 0x00 (0000ms, 3045ms total)
T0FFC 004:815 JLINK_WriteReg(R9, 0x2000017C)  returns 0x00 (0000ms, 3045ms total)
T0FFC 004:815 JLINK_WriteReg(R10, 0x00000000)  returns 0x00 (0000ms, 3045ms total)
T0FFC 004:815 JLINK_WriteReg(R11, 0x00000000)  returns 0x00 (0000ms, 3045ms total)
T0FFC 004:815 JLINK_WriteReg(R12, 0x00000000)  returns 0x00 (0000ms, 3045ms total)
T0FFC 004:815 JLINK_WriteReg(R13, 0x20000800)  returns 0x00 (0000ms, 3045ms total)
T0FFC 004:815 JLINK_WriteReg(R14, 0x20000001)  returns 0x00 (0000ms, 3045ms total)
T0FFC 004:815 JLINK_WriteReg(R15, 0x20000108)  returns 0x00 (0000ms, 3045ms total)
T0FFC 004:815 JLINK_WriteReg(XPSR, 0x01000000)  returns 0x00 (0000ms, 3045ms total)
T0FFC 004:815 JLINK_WriteReg(MSP, 0x20000800)  returns 0x00 (0000ms, 3045ms total)
T0FFC 004:815 JLINK_WriteReg(PSP, 0x20000800)  returns 0x00 (0000ms, 3045ms total)
T0FFC 004:815 JLINK_WriteReg(BASEPRI, 0x00000000)  returns 0x00 (0000ms, 3045ms total)
T0FFC 004:815 JLINK_WriteReg(CONTROL, 0x00000000)  returns 0x00 (0000ms, 3045ms total)
T0FFC 004:815 JLINK_WriteReg(FAULTMASK, 0x00000000)  returns 0x00 (0000ms, 3045ms total)
T0FFC 004:815 JLINK_WriteReg(BASEPRI_MAX, 0x00000000)  returns 0x00 (0000ms, 3045ms total)
T0FFC 004:815 JLINK_SetBPEx(Addr = 0x20000000, Type = 0xFFFFFFF2)  returns 0x0000000D (0000ms, 3045ms total)
T0FFC 004:815 JLINK_Go() >0x1D7 TIF> >0x1D7 TIF> >0x1D7 TIF> >0x1D7 TIF> >0x1D7 TIF> >0x1D7 TIF> >0x278 TIF> >0x1A4 TIF> >0x1A4 TIF> >0x1A4 TIF> >0x1A4 TIF> >0x1A4 TIF> >0x1D7 TIF> (0026ms, 3045ms total)
T0FFC 004:841 JLINK_IsHalted() >0x13A TIF>  returns FALSE (0002ms, 3071ms total)
T0FFC 004:893 JLINK_IsHalted() >0x13A TIF> >0x11E4 TIF> >0x1D5 TIF>  returns TRUE (0009ms, 3071ms total)
T0FFC 004:902 JLINK_ReadReg(R15)  returns 0x20000000 (0000ms, 3071ms total)
T0FFC 004:902 JLINK_ClrBPEx(BPHandle = 0x0000000D)  returns 0x00 (0000ms, 3071ms total)
T0FFC 004:902 JLINK_ReadReg(R0)  returns 0x00000000 (0000ms, 3071ms total)
T0FFC 004:903 JLINK_WriteMem(0x20000180, 0x0400 Bytes, ...) -- Data:  74 77 6F 72 6B 20 43 61 62 6C 65 20 69 73 20 20 ... >0x36A2 TIF>  returns 0x400 (0012ms, 3071ms total)
T0FFC 004:915 JLINK_WriteReg(R0, 0x08001000)  returns 0x00 (0000ms, 3083ms total)
T0FFC 004:915 JLINK_WriteReg(R1, 0x00000400)  returns 0x00 (0000ms, 3083ms total)
T0FFC 004:915 JLINK_WriteReg(R2, 0x20000180)  returns 0x00 (0000ms, 3083ms total)
T0FFC 004:915 JLINK_WriteReg(R3, 0x00000000)  returns 0x00 (0000ms, 3083ms total)
T0FFC 004:915 JLINK_WriteReg(R4, 0x00000000)  returns 0x00 (0001ms, 3083ms total)
T0FFC 004:916 JLINK_WriteReg(R5, 0x00000000)  returns 0x00 (0000ms, 3084ms total)
T0FFC 004:916 JLINK_WriteReg(R6, 0x00000000)  returns 0x00 (0000ms, 3084ms total)
T0FFC 004:916 JLINK_WriteReg(R7, 0x00000000)  returns 0x00 (0000ms, 3084ms total)
T0FFC 004:916 JLINK_WriteReg(R8, 0x00000000)  returns 0x00 (0000ms, 3084ms total)
T0FFC 004:916 JLINK_WriteReg(R9, 0x2000017C)  returns 0x00 (0000ms, 3084ms total)
T0FFC 004:916 JLINK_WriteReg(R10, 0x00000000)  returns 0x00 (0000ms, 3084ms total)
T0FFC 004:916 JLINK_WriteReg(R11, 0x00000000)  returns 0x00 (0000ms, 3084ms total)
T0FFC 004:916 JLINK_WriteReg(R12, 0x00000000)  returns 0x00 (0000ms, 3084ms total)
T0FFC 004:916 JLINK_WriteReg(R13, 0x20000800)  returns 0x00 (0000ms, 3084ms total)
T0FFC 004:916 JLINK_WriteReg(R14, 0x20000001)  returns 0x00 (0000ms, 3084ms total)
T0FFC 004:916 JLINK_WriteReg(R15, 0x20000108)  returns 0x00 (0000ms, 3084ms total)
T0FFC 004:916 JLINK_WriteReg(XPSR, 0x01000000)  returns 0x00 (0000ms, 3084ms total)
T0FFC 004:916 JLINK_WriteReg(MSP, 0x20000800)  returns 0x00 (0000ms, 3084ms total)
T0FFC 004:916 JLINK_WriteReg(PSP, 0x20000800)  returns 0x00 (0000ms, 3084ms total)
T0FFC 004:916 JLINK_WriteReg(BASEPRI, 0x00000000)  returns 0x00 (0000ms, 3084ms total)
T0FFC 004:916 JLINK_WriteReg(CONTROL, 0x00000000)  returns 0x00 (0000ms, 3084ms total)
T0FFC 004:916 JLINK_WriteReg(FAULTMASK, 0x00000000)  returns 0x00 (0000ms, 3084ms total)
T0FFC 004:916 JLINK_WriteReg(BASEPRI_MAX, 0x00000000)  returns 0x00 (0000ms, 3084ms total)
T0FFC 004:916 JLINK_SetBPEx(Addr = 0x20000000, Type = 0xFFFFFFF2)  returns 0x0000000E (0000ms, 3084ms total)
T0FFC 004:916 JLINK_Go() >0x1D7 TIF> >0x1D7 TIF> >0x1D7 TIF> >0x1D7 TIF> >0x1D7 TIF> >0x1D7 TIF> >0x278 TIF> >0x1A4 TIF> >0x1A4 TIF> >0x1A4 TIF> >0x1A4 TIF> >0x1A4 TIF> >0x1D7 TIF> (0026ms, 3084ms total)
T0FFC 004:942 JLINK_IsHalted() >0x13A TIF>  returns FALSE (0002ms, 3110ms total)
T0FFC 004:994 JLINK_IsHalted() >0x13A TIF> >0x11E4 TIF> >0x1D5 TIF>  returns TRUE (0010ms, 3110ms total)
T0FFC 005:004 JLINK_ReadReg(R15)  returns 0x20000000 (0000ms, 3110ms total)
T0FFC 005:004 JLINK_ClrBPEx(BPHandle = 0x0000000E)  returns 0x00 (0000ms, 3110ms total)
T0FFC 005:004 JLINK_ReadReg(R0)  returns 0x00000000 (0000ms, 3110ms total)
T0FFC 005:005 JLINK_WriteMem(0x20000180, 0x0400 Bytes, ...) -- Data:  F0 81 00 00 08 01 00 20 F0 B5 00 24 0A 4D 07 46 ... >0x36A2 TIF>  returns 0x400 (0014ms, 3110ms total)
T0FFC 005:019 JLINK_WriteReg(R0, 0x08001400)  returns 0x00 (0000ms, 3124ms total)
T0FFC 005:019 JLINK_WriteReg(R1, 0x00000400)  returns 0x00 (0000ms, 3124ms total)
T0FFC 005:019 JLINK_WriteReg(R2, 0x20000180)  returns 0x00 (0000ms, 3124ms total)
T0FFC 005:019 JLINK_WriteReg(R3, 0x00000000)  returns 0x00 (0000ms, 3124ms total)
T0FFC 005:019 JLINK_WriteReg(R4, 0x00000000)  returns 0x00 (0001ms, 3124ms total)
T0FFC 005:020 JLINK_WriteReg(R5, 0x00000000)  returns 0x00 (0000ms, 3125ms total)
T0FFC 005:020 JLINK_WriteReg(R6, 0x00000000)  returns 0x00 (0000ms, 3125ms total)
T0FFC 005:020 JLINK_WriteReg(R7, 0x00000000)  returns 0x00 (0000ms, 3125ms total)
T0FFC 005:020 JLINK_WriteReg(R8, 0x00000000)  returns 0x00 (0000ms, 3125ms total)
T0FFC 005:020 JLINK_WriteReg(R9, 0x2000017C)  returns 0x00 (0000ms, 3125ms total)
T0FFC 005:020 JLINK_WriteReg(R10, 0x00000000)  returns 0x00 (0000ms, 3125ms total)
T0FFC 005:020 JLINK_WriteReg(R11, 0x00000000)  returns 0x00 (0000ms, 3125ms total)
T0FFC 005:020 JLINK_WriteReg(R12, 0x00000000)  returns 0x00 (0000ms, 3125ms total)
T0FFC 005:020 JLINK_WriteReg(R13, 0x20000800)  returns 0x00 (0000ms, 3125ms total)
T0FFC 005:020 JLINK_WriteReg(R14, 0x20000001)  returns 0x00 (0000ms, 3125ms total)
T0FFC 005:020 JLINK_WriteReg(R15, 0x20000108)  returns 0x00 (0000ms, 3125ms total)
T0FFC 005:020 JLINK_WriteReg(XPSR, 0x01000000)  returns 0x00 (0000ms, 3125ms total)
T0FFC 005:020 JLINK_WriteReg(MSP, 0x20000800)  returns 0x00 (0000ms, 3125ms total)
T0FFC 005:020 JLINK_WriteReg(PSP, 0x20000800)  returns 0x00 (0000ms, 3125ms total)
T0FFC 005:020 JLINK_WriteReg(BASEPRI, 0x00000000)  returns 0x00 (0000ms, 3125ms total)
T0FFC 005:020 JLINK_WriteReg(CONTROL, 0x00000000)  returns 0x00 (0000ms, 3125ms total)
T0FFC 005:020 JLINK_WriteReg(FAULTMASK, 0x00000000)  returns 0x00 (0000ms, 3125ms total)
T0FFC 005:020 JLINK_WriteReg(BASEPRI_MAX, 0x00000000)  returns 0x00 (0000ms, 3125ms total)
T0FFC 005:020 JLINK_SetBPEx(Addr = 0x20000000, Type = 0xFFFFFFF2)  returns 0x0000000F (0000ms, 3125ms total)
T0FFC 005:020 JLINK_Go() >0x1D7 TIF> >0x1D7 TIF> >0x1D7 TIF> >0x1D7 TIF> >0x1D7 TIF> >0x1D7 TIF> >0x278 TIF> >0x1A4 TIF> >0x1A4 TIF> >0x1A4 TIF> >0x1A4 TIF> >0x1A4 TIF> >0x1D7 TIF> (0026ms, 3125ms total)
T0FFC 005:046 JLINK_IsHalted() >0x13A TIF>  returns FALSE (0002ms, 3151ms total)
T0FFC 005:098 JLINK_IsHalted() >0x13A TIF> >0x11E4 TIF> >0x1D5 TIF>  returns TRUE (0009ms, 3151ms total)
T0FFC 005:107 JLINK_ReadReg(R15)  returns 0x20000000 (0000ms, 3151ms total)
T0FFC 005:107 JLINK_ClrBPEx(BPHandle = 0x0000000F)  returns 0x00 (0000ms, 3151ms total)
T0FFC 005:107 JLINK_ReadReg(R0)  returns 0x00000000 (0000ms, 3151ms total)
T0FFC 005:108 JLINK_WriteMem(0x20000180, 0x0400 Bytes, ...) -- Data:  73 0D 0A 00 39 87 00 08 BD 3D 00 08 C8 01 00 20 ... >0x36A2 TIF>  returns 0x400 (0014ms, 3151ms total)
T0FFC 005:122 JLINK_WriteReg(R0, 0x08001800)  returns 0x00 (0000ms, 3165ms total)
T0FFC 005:122 JLINK_WriteReg(R1, 0x00000400)  returns 0x00 (0000ms, 3165ms total)
T0FFC 005:122 JLINK_WriteReg(R2, 0x20000180)  returns 0x00 (0000ms, 3165ms total)
T0FFC 005:122 JLINK_WriteReg(R3, 0x00000000)  returns 0x00 (0001ms, 3165ms total)
